time [s]	Vin [V]	Vout [V]
0,000000E+0	-9,062500E-3	1,041875E+0
4,000000E-4	2,500000E-3	1,002188E+0
8,000000E-4	3,437500E-3	1,023125E+0
1,200000E-3	5,312500E-3	1,000312E+0
1,600000E-3	-1,125000E-2	1,011250E+0
2,000000E-3	-1,656250E-2	1,003437E+0
2,400000E-3	1,125000E-2	1,010938E+0
2,800000E-3	-7,500000E-3	1,003437E+0
3,200000E-3	-2,187500E-2	1,006563E+0
3,600000E-3	6,250000E-4	1,010938E+0
4,000000E-3	2,937500E-2	1,003437E+0
4,400000E-3	-7,812500E-3	1,003125E+0
4,800000E-3	1,250000E-2	1,000938E+0
5,200000E-3	-7,812500E-3	9,946875E-1
5,600000E-3	-6,250000E-4	1,003125E+0
6,000000E-3	1,562500E-2	1,001250E+0
6,400000E-3	-1,718750E-2	9,931250E-1
6,800000E-3	-8,437500E-3	9,728125E-1
7,200000E-3	-4,375000E-3	9,968750E-1
7,600000E-3	1,125000E-2	9,928125E-1
8,000000E-3	1,562500E-3	9,834375E-1
8,400000E-3	1,562500E-2	1,004375E+0
8,800000E-3	-6,250000E-4	1,021875E+0
9,200000E-3	1,218750E-2	9,909375E-1
9,600000E-3	-8,750000E-3	1,003125E+0
1,000000E-2	1,218750E-2	9,981250E-1
1,040000E-2	-2,031250E-2	9,825000E-1
1,080000E-2	9,375000E-3	1,022500E+0
1,120000E-2	-7,500000E-3	1,000000E+0
1,160000E-2	-7,812500E-3	9,903125E-1
1,200000E-2	7,500000E-3	9,996875E-1
1,240000E-2	5,312500E-3	1,017500E+0
1,280000E-2	-6,250000E-4	1,020312E+0
1,320000E-2	-1,562500E-2	1,013437E+0
1,360000E-2	2,593750E-2	1,004375E+0
1,400000E-2	-1,906250E-2	1,000000E+0
1,440000E-2	-1,875000E-3	9,875000E-1
1,480000E-2	9,375000E-3	1,007500E+0
1,520000E-2	-2,750000E-2	9,712500E-1
1,560000E-2	2,031250E-2	9,818750E-1
1,600000E-2	4,062500E-3	9,937500E-1
1,640000E-2	1,250000E-2	1,000312E+0
1,680000E-2	-2,812500E-3	9,534375E-1
1,720000E-2	-1,000000E-2	9,809375E-1
1,760000E-2	-1,593750E-2	1,010000E+0
1,800000E-2	4,687500E-3	9,734375E-1
1,840000E-2	-2,437500E-2	9,950000E-1
1,880000E-2	5,312500E-3	9,775000E-1
1,920000E-2	3,750000E-3	1,024375E+0
1,960000E-2	-1,406250E-2	1,003125E+0
2,000000E-2	-9,375000E-4	1,027500E+0
2,040000E-2	3,750000E-3	1,000000E+0
2,080000E-2	-1,562500E-2	1,010000E+0
2,120000E-2	-8,125000E-3	1,005937E+0
2,160000E-2	6,250000E-4	1,011250E+0
2,200000E-2	-1,000000E-2	9,925000E-1
2,240000E-2	-2,406250E-2	1,002500E+0
2,280000E-2	-1,250000E-3	9,825000E-1
2,320000E-2	-8,125000E-3	9,856250E-1
2,360000E-2	1,125000E-2	9,859375E-1
2,400000E-2	5,937500E-3	1,000938E+0
2,440000E-2	1,687500E-2	9,946875E-1
2,480000E-2	8,750000E-3	9,631250E-1
2,520000E-2	-6,250000E-4	1,028437E+0
2,560000E-2	4,375000E-3	9,750000E-1
2,600000E-2	6,250000E-4	1,003125E+0
2,640000E-2	8,750000E-3	9,768750E-1
2,680000E-2	1,218750E-2	1,007500E+0
2,720000E-2	3,750000E-3	9,443750E-1
2,760000E-2	-7,500000E-3	1,001562E+0
2,800000E-2	-3,750000E-3	1,007500E+0
2,840000E-2	-1,656250E-2	1,006563E+0
2,880000E-2	-8,437500E-3	9,937500E-1
2,920000E-2	-9,375000E-4	9,878125E-1
2,960000E-2	5,000000E-3	9,759375E-1
3,000000E-2	-2,843750E-2	9,728125E-1
3,040000E-2	-5,937500E-3	9,831250E-1
3,080000E-2	3,437500E-3	9,940625E-1
3,120000E-2	2,843750E-2	1,008438E+0
3,160000E-2	1,250000E-2	9,925000E-1
3,200000E-2	7,187500E-3	1,020312E+0
3,240000E-2	-8,125000E-3	1,005000E+0
3,280000E-2	-8,125000E-3	9,925000E-1
3,320000E-2	-4,375000E-3	9,725000E-1
3,360000E-2	2,468750E-2	9,912500E-1
3,400000E-2	-8,437500E-3	1,007812E+0
3,440000E-2	8,437500E-3	9,815625E-1
3,480000E-2	4,687500E-3	1,003125E+0
3,520000E-2	3,125000E-4	9,806250E-1
3,560000E-2	4,375000E-3	1,003125E+0
3,600000E-2	-1,437500E-2	1,006250E+0
3,640000E-2	-5,937500E-3	9,831250E-1
3,680000E-2	7,500000E-3	9,953125E-1
3,720000E-2	1,375000E-2	1,011250E+0
3,760000E-2	2,406250E-2	9,884375E-1
3,800000E-2	2,500000E-3	9,900000E-1
3,840000E-2	1,218750E-2	9,968750E-1
3,880000E-2	2,718750E-2	9,750000E-1
3,920000E-2	-4,375000E-3	1,009375E+0
3,960000E-2	-8,750000E-3	9,531250E-1
4,000000E-2	4,062500E-3	9,900000E-1
4,040000E-2	4,375000E-3	9,734375E-1
4,080000E-2	1,562500E-3	9,990625E-1
4,120000E-2	2,656250E-2	1,005313E+0
4,160000E-2	-5,937500E-3	1,007500E+0
4,200000E-2	-2,968750E-2	9,831250E-1
4,240000E-2	6,250000E-4	9,903125E-1
4,280000E-2	-6,250000E-3	9,531250E-1
4,320000E-2	-2,062500E-2	1,021875E+0
4,360000E-2	-5,937500E-3	9,946875E-1
4,400000E-2	-7,812500E-3	1,011875E+0
4,440000E-2	8,437500E-3	1,011562E+0
4,480000E-2	-1,250000E-3	1,015313E+0
4,520000E-2	-2,843750E-2	9,993750E-1
4,560000E-2	2,718750E-2	1,003125E+0
4,600000E-2	-6,250000E-4	1,011875E+0
4,640000E-2	1,718750E-2	9,900000E-1
4,680000E-2	1,000000E-2	9,990625E-1
4,720000E-2	-2,593750E-2	1,012500E+0
4,760000E-2	-2,437500E-2	9,900000E-1
4,800000E-2	-5,937500E-3	1,004375E+0
4,840000E-2	3,125000E-4	9,959375E-1
4,880000E-2	2,187500E-3	9,975000E-1
4,920000E-2	2,437500E-2	1,007500E+0
4,960000E-2	-1,250000E-2	9,918750E-1
5,000000E-2	9,815625E-1	9,725000E-1
5,040000E-2	1,018125E+0	4,834375E-1
5,080000E-2	9,865625E-1	2,453125E-1
5,120000E-2	9,800000E-1	1,590625E-1
5,160000E-2	1,011562E+0	1,337500E-1
5,200000E-2	9,703125E-1	1,021875E-1
5,240000E-2	1,003750E+0	5,750000E-2
5,280000E-2	1,012812E+0	8,250000E-2
5,320000E-2	9,903125E-1	7,531250E-2
5,360000E-2	1,011562E+0	8,375000E-2
5,400000E-2	9,871875E-1	3,718750E-2
5,440000E-2	1,005625E+0	9,500000E-2
5,480000E-2	9,937500E-1	6,375000E-2
5,520000E-2	1,029062E+0	3,500000E-2
5,560000E-2	1,022188E+0	8,437500E-2
5,600000E-2	1,029688E+0	5,125000E-2
5,640000E-2	1,000938E+0	4,531250E-2
5,680000E-2	9,934375E-1	4,218750E-2
5,720000E-2	9,987500E-1	7,656250E-2
5,760000E-2	9,981250E-1	6,750000E-2
5,800000E-2	9,800000E-1	5,593750E-2
5,840000E-2	9,728125E-1	6,750000E-2
5,880000E-2	1,013437E+0	5,187500E-2
5,920000E-2	1,013437E+0	6,343750E-2
5,960000E-2	1,023437E+0	1,043750E-1
6,000000E-2	9,993750E-1	1,090625E-1
6,040000E-2	9,987500E-1	8,437500E-2
6,080000E-2	1,009062E+0	9,750000E-2
6,120000E-2	1,027813E+0	7,500000E-2
6,160000E-2	1,028437E+0	9,656250E-2
6,200000E-2	1,023750E+0	7,750000E-2
6,240000E-2	9,993750E-1	5,500000E-2
6,280000E-2	1,000000E+0	5,000000E-2
6,320000E-2	1,002500E+0	6,250000E-2
6,360000E-2	1,005625E+0	4,000000E-2
6,400000E-2	9,965625E-1	2,843750E-2
6,440000E-2	1,003437E+0	4,593750E-2
6,480000E-2	9,753125E-1	5,000000E-2
6,520000E-2	9,806250E-1	8,343750E-2
6,560000E-2	1,008438E+0	3,281250E-2
6,600000E-2	9,978125E-1	4,750000E-2
6,640000E-2	1,006250E+0	6,437500E-2
6,680000E-2	1,020000E+0	4,781250E-2
6,720000E-2	1,000000E+0	6,593750E-2
6,760000E-2	1,007187E+0	6,656250E-2
6,800000E-2	1,004687E+0	4,312500E-2
6,840000E-2	9,859375E-1	5,562500E-2
6,880000E-2	1,008438E+0	4,843750E-2
6,920000E-2	1,001250E+0	3,031250E-2
6,960000E-2	9,990625E-1	4,250000E-2
7,000000E-2	9,956250E-1	1,031250E-2
7,040000E-2	1,000625E+0	5,656250E-2
7,080000E-2	9,903125E-1	4,343750E-2
7,120000E-2	1,005625E+0	5,000000E-2
7,160000E-2	1,020312E+0	6,750000E-2
7,200000E-2	9,915625E-1	7,937500E-2
7,240000E-2	9,718750E-1	6,031250E-2
7,280000E-2	9,846875E-1	3,906250E-2
7,320000E-2	9,900000E-1	5,468750E-2
7,360000E-2	9,993750E-1	3,750000E-2
7,400000E-2	9,871875E-1	3,656250E-2
7,440000E-2	9,928125E-1	6,031250E-2
7,480000E-2	1,011562E+0	1,656250E-2
7,520000E-2	1,023750E+0	5,843750E-2
7,560000E-2	9,971875E-1	3,187500E-2
7,600000E-2	1,003437E+0	5,343750E-2
7,640000E-2	9,706250E-1	4,093750E-2
7,680000E-2	9,859375E-1	3,656250E-2
7,720000E-2	9,915625E-1	6,312500E-2
7,760000E-2	1,021875E+0	3,281250E-2
7,800000E-2	9,906250E-1	6,937500E-2
7,840000E-2	1,000938E+0	4,062500E-2
7,880000E-2	1,016875E+0	8,187500E-2
7,920000E-2	9,815625E-1	4,250000E-2
7,960000E-2	1,000312E+0	6,906250E-2
8,000000E-2	1,005313E+0	6,312500E-2
8,040000E-2	1,024375E+0	4,656250E-2
8,080000E-2	9,918750E-1	6,750000E-2
8,120000E-2	1,006563E+0	7,312500E-2
8,160000E-2	9,815625E-1	6,593750E-2
8,200000E-2	9,987500E-1	3,656250E-2
8,240000E-2	1,000000E+0	5,906250E-2
8,280000E-2	9,893750E-1	1,075000E-1
8,320000E-2	9,915625E-1	1,062500E-1
8,360000E-2	1,004063E+0	9,718750E-2
8,400000E-2	9,734375E-1	8,562500E-2
8,440000E-2	9,715625E-1	8,562500E-2
8,480000E-2	9,909375E-1	7,125000E-2
8,520000E-2	1,028437E+0	1,078125E-1
8,560000E-2	9,700000E-1	1,209375E-1
8,600000E-2	1,004687E+0	7,468750E-2
8,640000E-2	9,765625E-1	6,781250E-2
8,680000E-2	9,862500E-1	4,156250E-2
8,720000E-2	9,987500E-1	5,937500E-2
8,760000E-2	1,003750E+0	8,781250E-2
8,800000E-2	9,787500E-1	2,781250E-2
8,840000E-2	9,856250E-1	4,343750E-2
8,880000E-2	9,853125E-1	5,031250E-2
8,920000E-2	1,007187E+0	5,343750E-2
8,960000E-2	9,959375E-1	3,031250E-2
9,000000E-2	1,009688E+0	6,937500E-2
9,040000E-2	9,809375E-1	5,593750E-2
9,080000E-2	9,934375E-1	3,687500E-2
9,120000E-2	9,718750E-1	6,843750E-2
9,160000E-2	1,003125E+0	6,000000E-2
9,200000E-2	9,940625E-1	6,093750E-2
9,240000E-2	1,003437E+0	3,218750E-2
9,280000E-2	1,003750E+0	5,500000E-2
9,320000E-2	1,018750E+0	3,187500E-2
9,360000E-2	1,011562E+0	6,500000E-2
9,400000E-2	9,900000E-1	5,500000E-2
9,440000E-2	9,787500E-1	4,156250E-2
9,480000E-2	9,987500E-1	4,437500E-2
9,520000E-2	1,009375E+0	6,656250E-2
9,560000E-2	1,009062E+0	6,750000E-2
9,600000E-2	9,981250E-1	4,593750E-2
9,640000E-2	9,737500E-1	3,687500E-2
9,680000E-2	9,787500E-1	2,750000E-2
9,720000E-2	1,025000E+0	5,500000E-2
9,760000E-2	1,000625E+0	5,250000E-2
9,800000E-2	9,859375E-1	6,000000E-2
9,840000E-2	9,956250E-1	4,000000E-2
9,880000E-2	9,787500E-1	6,562500E-2
9,920000E-2	1,006250E+0	3,781250E-2
9,960000E-2	1,006563E+0	6,187500E-2
1,000000E-1	9,918750E-1	6,906250E-2
1,004000E-1	1,029375E+0	4,343750E-2
1,008000E-1	1,003437E+0	6,562500E-2
1,012000E-1	1,005625E+0	8,093750E-2
1,016000E-1	9,940625E-1	4,093750E-2
1,020000E-1	1,017813E+0	4,437500E-2
1,024000E-1	1,004375E+0	1,000000E-2
1,028000E-1	9,940625E-1	5,250000E-2
1,032000E-1	1,005625E+0	5,812500E-2
1,036000E-1	9,875000E-1	4,125000E-2
1,040000E-1	1,007500E+0	4,343750E-2
1,044000E-1	9,912500E-1	6,656250E-2
1,048000E-1	1,005000E+0	6,031250E-2
1,052000E-1	9,718750E-1	1,062500E-2
1,056000E-1	9,787500E-1	5,062500E-2
1,060000E-1	1,027500E+0	2,312500E-2
1,064000E-1	9,937500E-1	5,656250E-2
1,068000E-1	1,005313E+0	8,156250E-2
1,072000E-1	1,011875E+0	8,500000E-2
1,076000E-1	9,778125E-1	7,968750E-2
1,080000E-1	9,912500E-1	1,093750E-1
1,084000E-1	9,715625E-1	9,343750E-2
1,088000E-1	1,007187E+0	7,562500E-2
1,092000E-1	9,937500E-1	9,125000E-2
1,096000E-1	9,740625E-1	7,125000E-2
1,100000E-1	9,937500E-1	5,687500E-2
1,104000E-1	9,918750E-1	9,625000E-2
1,108000E-1	9,796875E-1	8,593750E-2
1,112000E-1	1,025937E+0	7,562500E-2
1,116000E-1	9,778125E-1	5,343750E-2
1,120000E-1	1,017813E+0	9,812500E-2
1,124000E-1	9,778125E-1	8,156250E-2
1,128000E-1	9,903125E-1	1,090625E-1
1,132000E-1	9,756250E-1	5,468750E-2
1,136000E-1	9,637500E-1	6,125000E-2
1,140000E-1	9,971875E-1	3,375000E-2
1,144000E-1	9,740625E-1	7,593750E-2
1,148000E-1	9,796875E-1	6,312500E-2
1,152000E-1	1,012188E+0	6,656250E-2
1,156000E-1	1,008750E+0	5,187500E-2
1,160000E-1	1,023125E+0	5,750000E-2
1,164000E-1	9,940625E-1	4,906250E-2
1,168000E-1	9,940625E-1	4,312500E-2
1,172000E-1	9,953125E-1	5,625000E-2
1,176000E-1	9,934375E-1	6,843750E-2
1,180000E-1	1,008750E+0	4,062500E-2
1,184000E-1	1,001562E+0	3,343750E-2
1,188000E-1	1,006250E+0	5,593750E-2
1,192000E-1	1,023437E+0	5,343750E-2
1,196000E-1	1,021562E+0	4,500000E-2
1,200000E-1	9,965625E-1	4,781250E-2
1,204000E-1	1,004063E+0	1,375000E-2
1,208000E-1	1,004375E+0	4,343750E-2
1,212000E-1	9,790625E-1	5,468750E-2
1,216000E-1	1,005313E+0	6,437500E-2
1,220000E-1	9,953125E-1	4,156250E-2
1,224000E-1	9,900000E-1	5,187500E-2
1,228000E-1	9,915625E-1	6,656250E-2
1,232000E-1	1,007187E+0	4,843750E-2
1,236000E-1	9,953125E-1	5,531250E-2
1,240000E-1	9,875000E-1	5,406250E-2
1,244000E-1	9,793750E-1	4,656250E-2
1,248000E-1	1,004687E+0	6,843750E-2
1,252000E-1	1,012812E+0	3,593750E-2
1,256000E-1	1,004063E+0	4,781250E-2
1,260000E-1	9,834375E-1	2,500000E-2
1,264000E-1	1,009375E+0	3,468750E-2
1,268000E-1	9,903125E-1	3,125000E-2
1,272000E-1	1,002500E+0	5,656250E-2
1,276000E-1	1,005625E+0	4,312500E-2
1,280000E-1	9,993750E-1	5,593750E-2
1,284000E-1	9,978125E-1	5,093750E-2
1,288000E-1	1,001250E+0	3,750000E-2
1,292000E-1	9,903125E-1	5,500000E-2
1,296000E-1	9,821875E-1	1,312500E-2
1,300000E-1	1,000625E+0	3,750000E-2
1,304000E-1	1,007500E+0	8,406250E-2
1,308000E-1	9,912500E-1	5,281250E-2
1,312000E-1	1,009375E+0	4,531250E-2
1,316000E-1	1,007187E+0	6,062500E-2
1,320000E-1	9,840625E-1	3,000000E-2
1,324000E-1	9,993750E-1	7,593750E-2
1,328000E-1	1,010625E+0	8,750000E-2
1,332000E-1	9,740625E-1	5,531250E-2
1,336000E-1	9,725000E-1	8,500000E-2
1,340000E-1	1,000625E+0	7,000000E-2
1,344000E-1	9,715625E-1	8,562500E-2
1,348000E-1	9,987500E-1	8,156250E-2
1,352000E-1	9,953125E-1	8,750000E-2
1,356000E-1	1,015625E+0	9,031250E-2
1,360000E-1	9,803125E-1	8,093750E-2
1,364000E-1	9,896875E-1	7,468750E-2
1,368000E-1	9,790625E-1	8,312500E-2
1,372000E-1	9,721875E-1	9,500000E-2
1,376000E-1	1,019375E+0	1,050000E-1
1,380000E-1	9,778125E-1	8,500000E-2
1,384000E-1	9,915625E-1	6,531250E-2
1,388000E-1	1,000625E+0	4,781250E-2
1,392000E-1	1,043125E+0	1,125000E-2
1,396000E-1	1,005937E+0	4,343750E-2
1,400000E-1	9,637500E-1	5,031250E-2
1,404000E-1	9,721875E-1	6,312500E-2
1,408000E-1	9,881250E-1	6,375000E-2
1,412000E-1	9,925000E-1	7,468750E-2
1,416000E-1	9,925000E-1	4,187500E-2
1,420000E-1	9,793750E-1	3,125000E-2
1,424000E-1	1,005937E+0	3,687500E-2
1,428000E-1	9,940625E-1	5,687500E-2
1,432000E-1	1,007187E+0	3,781250E-2
1,436000E-1	9,875000E-1	5,468750E-2
1,440000E-1	9,978125E-1	4,093750E-2
1,444000E-1	9,925000E-1	3,656250E-2
1,448000E-1	1,009062E+0	1,218750E-2
1,452000E-1	9,853125E-1	1,156250E-2
1,456000E-1	9,737500E-1	5,437500E-2
1,460000E-1	9,906250E-1	5,937500E-2
1,464000E-1	1,011875E+0	7,625000E-2
1,468000E-1	9,725000E-1	4,312500E-2
1,472000E-1	9,671875E-1	6,312500E-2
1,476000E-1	1,002813E+0	5,656250E-2
1,480000E-1	1,022500E+0	6,406250E-2
1,484000E-1	9,953125E-1	4,000000E-2
1,488000E-1	1,012500E+0	4,500000E-2
1,492000E-1	1,004375E+0	5,781250E-2
1,496000E-1	1,005313E+0	5,781250E-2
1,500000E-1	9,959375E-1	6,656250E-2
1,504000E-1	9,921875E-1	5,125000E-2
1,508000E-1	9,918750E-1	5,437500E-2
1,512000E-1	1,027813E+0	4,656250E-2
1,516000E-1	1,001250E+0	1,718750E-2
1,520000E-1	9,934375E-1	5,562500E-2
1,524000E-1	9,940625E-1	5,687500E-2
1,528000E-1	1,003750E+0	6,250000E-2
1,532000E-1	1,005937E+0	6,500000E-2
1,536000E-1	9,884375E-1	4,437500E-2
1,540000E-1	9,875000E-1	5,312500E-2
1,544000E-1	9,968750E-1	4,781250E-2
1,548000E-1	9,921875E-1	6,625000E-2
1,552000E-1	1,018750E+0	4,625000E-2
1,556000E-1	9,921875E-1	3,375000E-2
1,560000E-1	9,996875E-1	4,906250E-2
1,564000E-1	9,918750E-1	3,031250E-2
1,568000E-1	9,918750E-1	4,000000E-2
1,572000E-1	1,012812E+0	5,187500E-2
1,576000E-1	1,004063E+0	4,062500E-2
1,580000E-1	1,011562E+0	4,562500E-2
1,584000E-1	9,981250E-1	6,000000E-2
1,588000E-1	9,915625E-1	3,312500E-2
1,592000E-1	9,909375E-1	4,843750E-2
1,596000E-1	9,809375E-1	5,687500E-2
1,600000E-1	9,987500E-1	4,781250E-2
1,604000E-1	9,884375E-1	5,343750E-2
1,608000E-1	9,987500E-1	5,187500E-2
1,612000E-1	1,000000E+0	6,781250E-2
1,616000E-1	1,003750E+0	4,031250E-2
1,620000E-1	9,915625E-1	4,406250E-2
1,624000E-1	9,781250E-1	5,562500E-2
1,628000E-1	1,000625E+0	7,343750E-2
1,632000E-1	9,996875E-1	6,062500E-2
1,636000E-1	9,981250E-1	5,750000E-2
1,640000E-1	9,956250E-1	3,125000E-2
1,644000E-1	1,023750E+0	7,093750E-2
1,648000E-1	1,025937E+0	6,656250E-2
1,652000E-1	1,036875E+0	4,218750E-2
1,656000E-1	1,003750E+0	4,781250E-2
1,660000E-1	9,987500E-1	3,781250E-2
1,664000E-1	9,706250E-1	6,093750E-2
1,668000E-1	9,993750E-1	3,375000E-2
1,672000E-1	1,018750E+0	7,093750E-2
1,676000E-1	9,840625E-1	8,250000E-2
1,680000E-1	9,809375E-1	8,406250E-2
1,684000E-1	9,987500E-1	5,500000E-2
1,688000E-1	9,906250E-1	1,015625E-1
1,692000E-1	1,015625E+0	8,750000E-2
1,696000E-1	1,000312E+0	5,781250E-2
1,700000E-1	1,003437E+0	5,562500E-2
1,704000E-1	1,003437E+0	5,312500E-2
1,708000E-1	1,019375E+0	3,562500E-2
1,712000E-1	9,903125E-1	6,656250E-2
1,716000E-1	9,843750E-1	6,312500E-2
1,720000E-1	9,803125E-1	5,125000E-2
1,724000E-1	9,915625E-1	3,531250E-2
1,728000E-1	9,896875E-1	3,468750E-2
1,732000E-1	1,002500E+0	4,343750E-2
1,736000E-1	9,918750E-1	3,375000E-2
1,740000E-1	1,020625E+0	2,093750E-2
1,744000E-1	1,009688E+0	4,656250E-2
1,748000E-1	9,759375E-1	3,343750E-2
1,752000E-1	9,987500E-1	5,156250E-2
1,756000E-1	1,010312E+0	6,593750E-2
1,760000E-1	9,881250E-1	3,781250E-2
1,764000E-1	9,884375E-1	6,750000E-2
1,768000E-1	1,021562E+0	3,312500E-2
1,772000E-1	1,001250E+0	5,125000E-2
1,776000E-1	1,003750E+0	5,468750E-2
1,780000E-1	1,028437E+0	4,156250E-2
1,784000E-1	1,007500E+0	5,937500E-2
1,788000E-1	9,853125E-1	6,250000E-2
1,792000E-1	9,796875E-1	2,906250E-2
1,796000E-1	9,787500E-1	3,312500E-2
1,800000E-1	1,024063E+0	3,031250E-2
1,804000E-1	1,004063E+0	4,250000E-2
1,808000E-1	1,005937E+0	6,906250E-2
1,812000E-1	9,965625E-1	3,000000E-2
1,816000E-1	1,020938E+0	4,750000E-2
1,820000E-1	1,025625E+0	5,625000E-2
1,824000E-1	1,025000E+0	8,156250E-2
1,828000E-1	1,008438E+0	4,093750E-2
1,832000E-1	9,787500E-1	3,125000E-2
1,836000E-1	1,003125E+0	3,375000E-2
1,840000E-1	9,787500E-1	6,656250E-2
1,844000E-1	9,887500E-1	6,750000E-2
1,848000E-1	1,025937E+0	6,031250E-2
1,852000E-1	1,000000E+0	3,312500E-2
1,856000E-1	1,019375E+0	4,062500E-2
1,860000E-1	1,022500E+0	5,656250E-2
1,864000E-1	9,956250E-1	5,500000E-2
1,868000E-1	9,809375E-1	5,281250E-2
1,872000E-1	1,015313E+0	8,156250E-2
1,876000E-1	1,019062E+0	8,312500E-2
1,880000E-1	1,029688E+0	6,312500E-2
1,884000E-1	1,000312E+0	5,500000E-2
1,888000E-1	9,981250E-1	5,906250E-2
1,892000E-1	9,987500E-1	7,906250E-2
1,896000E-1	9,900000E-1	8,312500E-2
1,900000E-1	9,709375E-1	8,093750E-2
1,904000E-1	9,971875E-1	7,531250E-2
1,908000E-1	1,024063E+0	9,468750E-2
1,912000E-1	9,890625E-1	7,500000E-2
1,916000E-1	9,968750E-1	7,000000E-2
1,920000E-1	9,800000E-1	7,843750E-2
1,924000E-1	9,928125E-1	7,062500E-2
1,928000E-1	9,634375E-1	8,781250E-2
1,932000E-1	9,800000E-1	3,437500E-2
1,936000E-1	9,825000E-1	6,937500E-2
1,940000E-1	1,000625E+0	3,531250E-2
1,944000E-1	9,903125E-1	3,125000E-2
1,948000E-1	9,840625E-1	5,593750E-2
1,952000E-1	1,000938E+0	2,562500E-2
1,956000E-1	9,981250E-1	4,531250E-2
1,960000E-1	1,004063E+0	4,656250E-2
1,964000E-1	9,721875E-1	3,906250E-2
1,968000E-1	1,028750E+0	6,593750E-2
1,972000E-1	9,587500E-1	6,187500E-2
1,976000E-1	1,000000E+0	6,093750E-2
1,980000E-1	9,915625E-1	4,406250E-2
1,984000E-1	9,800000E-1	2,312500E-2
1,988000E-1	1,015937E+0	6,781250E-2
1,992000E-1	1,000938E+0	3,000000E-2
1,996000E-1	9,940625E-1	1,625000E-2
2,000000E-1	9,965625E-1	3,593750E-2
2,004000E-1	9,800000E-1	5,906250E-2
2,008000E-1	1,007187E+0	3,531250E-2
2,012000E-1	1,002500E+0	3,593750E-2
2,016000E-1	1,011562E+0	4,187500E-2
2,020000E-1	9,818750E-1	4,781250E-2
2,024000E-1	1,004063E+0	6,031250E-2
2,028000E-1	1,011250E+0	3,531250E-2
2,032000E-1	1,002500E+0	4,937500E-2
2,036000E-1	9,756250E-1	5,343750E-2
2,040000E-1	1,000625E+0	3,906250E-2
2,044000E-1	9,968750E-1	3,656250E-2
2,048000E-1	9,903125E-1	1,000000E-2
2,052000E-1	1,007187E+0	3,750000E-2
2,056000E-1	1,009062E+0	4,781250E-2
2,060000E-1	1,023750E+0	5,125000E-2
2,064000E-1	1,001875E+0	3,000000E-2
2,068000E-1	9,993750E-1	4,781250E-2
2,072000E-1	1,024375E+0	5,000000E-2
2,076000E-1	9,778125E-1	3,750000E-2
2,080000E-1	1,028125E+0	5,687500E-2
2,084000E-1	1,024375E+0	3,968750E-2
2,088000E-1	1,000625E+0	1,656250E-2
2,092000E-1	9,825000E-1	5,562500E-2
2,096000E-1	1,000312E+0	5,156250E-2
2,100000E-1	9,915625E-1	3,468750E-2
2,104000E-1	1,004687E+0	5,968750E-2
2,108000E-1	1,000938E+0	5,000000E-2
2,112000E-1	9,987500E-1	5,031250E-2
2,116000E-1	1,006563E+0	5,187500E-2
2,120000E-1	1,000625E+0	5,375000E-2
2,124000E-1	9,990625E-1	6,781250E-2
2,128000E-1	1,003125E+0	3,000000E-2
2,132000E-1	1,000938E+0	8,843750E-2
2,136000E-1	1,002500E+0	7,125000E-2
2,140000E-1	1,004063E+0	7,468750E-2
2,144000E-1	9,918750E-1	7,968750E-2
2,148000E-1	1,002500E+0	1,000000E-1
2,152000E-1	9,940625E-1	1,034375E-1
2,156000E-1	9,965625E-1	7,625000E-2
2,160000E-1	9,965625E-1	8,375000E-2
2,164000E-1	9,834375E-1	5,750000E-2
2,168000E-1	1,004687E+0	6,406250E-2
2,172000E-1	1,025625E+0	3,656250E-2
2,176000E-1	1,003750E+0	8,750000E-2
2,180000E-1	9,990625E-1	5,000000E-2
2,184000E-1	1,003750E+0	4,343750E-2
2,188000E-1	1,002813E+0	1,375000E-2
2,192000E-1	9,940625E-1	4,187500E-2
2,196000E-1	1,023750E+0	6,375000E-2
2,200000E-1	9,903125E-1	4,000000E-2
2,204000E-1	9,915625E-1	6,750000E-2
2,208000E-1	1,025000E+0	3,250000E-2
